
**** 10/17/24 23:18:17 ****** PSpice Lite (October 2012) ****** ID# 10813 ****

 ** Profile: "SCHEMATIC1-run_test2"  [ C:\Users\Andrei Ciuhureanu\Desktop\Proiect 1(CEF 2)\Proiectare\schema_bloc-PSpiceFiles\SCHEMAT


 ****     CIRCUIT DESCRIPTION


******************************************************************************




** Creating circuit file "run_test2.cir" 
** WARNING: THIS AUTOMATICALLY GENERATED FILE MAY BE OVERWRITTEN BY SUBSEQUENT SIMULATIONS

*Libraries: 
* Profile Libraries :
* Local Libraries :
.LIB "c:/users/andrei ciuhureanu/desktop/lib_modelepspice_anexa_1/modele_a1_lib/1n4148.lib" 
.LIB "c:/users/andrei ciuhureanu/desktop/lib_modelepspice_anexa_1/modele_a1_lib/bc807-25.lib" 
.LIB "c:/users/andrei ciuhureanu/desktop/lib_modelepspice_anexa_1/modele_a1_lib/bc817-25.lib" 
.LIB "c:/users/andrei ciuhureanu/desktop/lib_modelepspice_anexa_1/modele_a1_lib/bc846b.lib" 
.LIB "c:/users/andrei ciuhureanu/desktop/lib_modelepspice_anexa_1/modele_a1_lib/bc856b.lib" 
.LIB "c:/users/andrei ciuhureanu/desktop/lib_modelepspice_anexa_1/modele_a1_lib/bzx84c2v7.lib" 
.LIB "c:/users/andrei ciuhureanu/desktop/lib_modelepspice_anexa_1/modele_a1_lib/bzx84c5v1.lib" 
.LIB "c:/users/andrei ciuhureanu/desktop/lib_modelepspice_anexa_1/modele_a1_lib/bzx84c5v6.lib" 
.LIB "c:/users/andrei ciuhureanu/desktop/lib_modelepspice_anexa_1/modele_a1_lib/bzx84c6v2.lib" 
.LIB "c:/users/andrei ciuhureanu/desktop/lib_modelepspice_anexa_1/modele_a1_lib/bzx84c6v8.lib" 
.LIB "c:/users/andrei ciuhureanu/desktop/lib_modelepspice_anexa_1/modele_a1_lib/bzx84c8v2.lib" 
.LIB "c:/users/andrei ciuhureanu/desktop/lib_modelepspice_anexa_1/modele_a1_lib/bzx84c10.lib" 
.LIB "c:/users/andrei ciuhureanu/desktop/lib_modelepspice_anexa_1/modele_a1_lib/irfr120npbf.lib" 
.LIB "c:/users/andrei ciuhureanu/desktop/lib_modelepspice_anexa_1/modele_a1_lib/mjd31cg.lib" 
.LIB "c:/users/andrei ciuhureanu/desktop/lib_modelepspice_anexa_1/modele_a1_lib/mjd32cg.lib" 
.LIB "c:/users/andrei ciuhureanu/desktop/lib_modelepspice_anexa_1/modele_a1_lib/mmbfj177lt1g.lib" 
.LIB "c:/users/andrei ciuhureanu/desktop/lib_modelepspice_anexa_1/modele_a1_lib/mmbfj309lt1g.lib" 
* From [PSPICE NETLIST] section of C:\Users\Andrei Ciuhureanu\AppData\Roaming\SPB_Data\cdssetup\OrCAD_PSpice/16.6.0/PSpice.ini file:
.lib "nomd.lib" 

*Analysis directives: 
.TRAN  0 10ms 0 
.OPTIONS ADVCONV
.PROBE64 V(alias(*)) I(alias(*)) W(alias(*)) D(alias(*)) NOISE(alias(*)) 
.INC "..\SCHEMATIC1.net" 



**** INCLUDING SCHEMATIC1.net ****
* source SCHEMA_BLOC
Q_Q1         N00559 N00418 N00489 QBC856B 
R_R1         N00559 N00380  2.1k TC=0,0 
R_R2         N00418 N00380  14k TC=0,0 
R_R3         0 N00418  19k TC=0,0 
R_R4         0 N00489  1.7k TC=0,0 
C_C1         N00651 N00418  100n  TC=0,0 
V_V1         N00651 0  AC 540m
+SIN 0 540m 1k 0 0 0
V_V2         N00380 0 9Vdc

**** RESUMING run_test2.cir ****
.END

**** 10/17/24 23:18:17 ****** PSpice Lite (October 2012) ****** ID# 10813 ****

 ** Profile: "SCHEMATIC1-run_test2"  [ C:\Users\Andrei Ciuhureanu\Desktop\Proiect 1(CEF 2)\Proiectare\schema_bloc-PSpiceFiles\SCHEMAT


 ****     BJT MODEL PARAMETERS


******************************************************************************




               QBC856B         
               PNP             
       LEVEL    1            
          IS   20.140000E-15 
          BF  315.3          
          NF     .9974       
         VAF   39.15         
         IKF     .079        
         ISE    6.578000E-15 
          NE    1.45         
          BR    8.68         
          NR     .9952       
         VAR    9.5          
         IKR     .09         
         ISC   16.330000E-15 
          NC    1.15         
         ISS    0            
          RB   10            
         RBM    5.000000E-06 
         IRB    5.000000E-06 
          RE     .663        
          RC     .718        
         CJE   11.350000E-12 
         VJE     .7071       
         MJE     .3808       
         CJC    6.395000E-12 
         VJC     .4951       
         MJC     .44         
        XCJC     .6288       
         CJS    0            
         VJS     .75         
         MJS     .333        
          FC     .9059       
          TF  654.600000E-12 
         XTF    5.387        
         VTF    6.245        
         ITF     .2108       
          TR   55.000000E-09 
          KF    0            
          AF    1            
          CN    2.2          
           D     .52         


**** 10/17/24 23:18:17 ****** PSpice Lite (October 2012) ****** ID# 10813 ****

 ** Profile: "SCHEMATIC1-run_test2"  [ C:\Users\Andrei Ciuhureanu\Desktop\Proiect 1(CEF 2)\Proiectare\schema_bloc-PSpiceFiles\SCHEMAT


 ****     INITIAL TRANSIENT SOLUTION       TEMPERATURE =   27.000 DEG C


******************************************************************************



 NODE   VOLTAGE     NODE   VOLTAGE     NODE   VOLTAGE     NODE   VOLTAGE


(N00380)    9.0000 (N00418)    6.0213 (N00489)    1.7274 (N00559)    6.6475     

(N00651)    0.0000 




    VOLTAGE SOURCE CURRENTS
    NAME         CURRENT

    V_V1         0.000E+00
    V_V2        -1.333E-03

    TOTAL POWER DISSIPATION   1.20E-02  WATTS



          JOB CONCLUDED

**** 10/17/24 23:18:17 ****** PSpice Lite (October 2012) ****** ID# 10813 ****

 ** Profile: "SCHEMATIC1-run_test2"  [ C:\Users\Andrei Ciuhureanu\Desktop\Proiect 1(CEF 2)\Proiectare\schema_bloc-PSpiceFiles\SCHEMAT


 ****     JOB STATISTICS SUMMARY


******************************************************************************



  Total job time (using Solver 1)   =         .02
